!Murata Part Number: GRM3195C2A104GA01
!These Parameters are Measured in Series Mode Connection
!       o--ll--o
!Port1            Port2
!       o------o
!Operation Temp=25[degC], DC Bias Voltage=0[V]
!Freq. Start=1[MHz] Stop=6[GHz], 401[Steps]
!Data Generated on Jun 1, 2020
# Hz S RI R 50
!Freq.(Hz) S11(Real) S11(Imag) S21(Real) S21(Imag) S12(Real) S12(Imag) S22(Real) S22(Imag)
1000000.0 2.8275183905628564E-4 -0.015617289550007596 0.9997172481609439 0.015617289550007596 0.9997172481609439 0.015617289550007596 2.8275183905628564E-4 -0.015617289550007596
1021987.0156634536 2.723545659321234E-4 -0.015279239100590541 0.9997276454340678 0.015279239100590541 0.9997276454340678 0.015279239100590541 2.723545659321234E-4 -0.015279239100590541
1044457.4601846923 2.6240406709139043E-4 -0.01494840340760167 0.9997375959329086 0.01494840340760167 0.9997375959329086 0.01494840340760167 2.6240406709139043E-4 -0.01494840340760167
1067421.9627215841 2.528815129317916E-4 -0.014624626891430795 0.9997471184870682 0.014624626891430795 0.9997471184870682 0.014624626891430795 2.528815129317916E-4 -0.014624626891430795
1090891.386135458 2.437688793649192E-4 -0.014307757260267194 0.999756231120635 0.014307757260267194 0.999756231120635 0.014307757260267194 2.437688793649192E-4 -0.014307757260267194
1114876.832129545 2.350489137280144E-4 -0.013997645441627248 0.999764951086272 0.013997645441627248 0.999764951086272 0.013997645441627248 2.350489137280144E-4 -0.013997645441627248
1139389.6465003989 2.2670510212950343E-4 -0.013694145515191682 0.9997732948978706 0.013694145515191682 0.9997732948978706 0.013694145515191682 2.2670510212950343E-4 -0.013694145515191682
1164441.4245047802 2.1872163816721927E-4 -0.013397114646933956 0.999781278361833 0.013397114646933956 0.999781278361833 0.013397114646933956 2.1872163816721927E-4 -0.013397114646933956
1190044.0163445412 2.110833929607089E-4 -0.013106413024521117 0.9997889166070393 0.013106413024521117 0.9997889166070393 0.013106413024521117 2.110833929607089E-4 -0.013106413024521117
1216209.5327721077 2.0377588644141005E-4 -0.01282190379396794 0.9997962241135587 0.01282190379396794 0.9997962241135587 0.01282190379396794 2.0377588644141005E-4 -0.01282190379396794
1242950.3508192098 1.9678525984678511E-4 -0.012543452997525129 0.9998032147401532 0.012543452997525129 0.9998032147401532 0.012543452997525129 1.9678525984678511E-4 -0.012543452997525129
1270279.119651567 1.9009824936670942E-4 -0.0122709295127823 0.9998099017506333 0.0122709295127823 0.9998099017506333 0.0122709295127823 1.9009824936670942E-4 -0.0122709295127823
1298208.7665523042 1.8370216089251987E-4 -0.012004204992965912 0.9998162978391075 0.012004204992965912 0.9998162978391075 0.012004204992965912 1.8370216089251987E-4 -0.012004204992965912
1326752.5030369225 1.7758484582118474E-4 -0.011743153808412524 0.9998224151541787 0.011743153808412524 0.9998224151541787 0.011743153808412524 1.7758484582118474E-4 -0.011743153808412524
1355923.8311027219 1.717346778690104E-4 -0.01148765298919754 0.9998282653221311 0.01148765298919754 0.9998282653221311 0.01148765298919754 1.717346778690104E-4 -0.01148765298919754
1385736.5496156274 1.6614053085119244E-4 -0.011237582168899448 0.9998338594691488 0.011237582168899448 0.9998338594691488 0.011237582168899448 1.6614053085119244E-4 -0.011237582168899448
1416204.7608374464 1.6079175738534175E-4 -0.01099282352947962 0.9998392082426149 0.01099282352947962 0.9998392082426149 0.01099282352947962 1.6079175738534175E-4 -0.01099282352947962
1447342.877096637 1.556781684788678E-4 -0.01075326174725752 0.9998443218315209 0.01075326174725752 0.9998443218315209 0.01075326174725752 1.556781684788678E-4 -0.01075326174725752
1479165.6276057488 1.507900139618024E-4 -0.010518783939961444 0.9998492099860382 0.010518783939961444 0.9998492099860382 0.010518783939961444 1.507900139618024E-4 -0.010518783939961444
1511688.0654287587 1.4611796372827538E-4 -0.01028927961483445 0.9998538820362718 0.01028927961483445 0.9998538820362718 0.01028927961483445 1.4611796372827538E-4 -0.01028927961483445
1544925.574601597 1.4165308975144363E-4 -0.010064640617775605 0.9998583469102487 0.010064640617775605 0.9998583469102487 0.010064640617775605 1.4165308975144363E-4 -0.010064640617775605
1578893.8774092323 1.373868488382035E-4 -0.009844761083496384 0.9998626131511618 0.009844761083496384 0.9998626131511618 0.009844761083496384 1.373868488382035E-4 -0.009844761083496384
1613609.04182276 1.3331106609150203E-4 -0.009629537386672224 0.9998666889339084 0.009629537386672224 0.9998666889339084 0.009629537386672224 1.3331106609150203E-4 -0.009629537386672224
1649087.4891000076 1.2941791904950246E-4 -0.009418868094069197 0.9998705820809506 0.009418868094069197 0.9998705820809506 0.009418868094069197 1.2941791904950246E-4 -0.009418868094069197
1685346.001553255 1.2569992247226159E-4 -0.009212653917625945 0.9998743000775279 0.009212653917625945 0.9998743000775279 0.009212653917625945 1.2569992247226159E-4 -0.009212653917625945
1722401.7304877453 1.2214991374793693E-4 -0.009010797668470976 0.9998778500862522 0.009010797668470976 0.9998778500862522 0.009010797668470976 1.2214991374793693E-4 -0.009010797668470976
1760272.2043147392 1.1876103889186677E-4 -0.008813204211855568 0.999881238961108 0.008813204211855568 0.999881238961108 0.008813204211855568 1.1876103889186677E-4 -0.008813204211855568
1798975.3368429495 1.1552673911316278E-4 -0.008619780422982651 0.9998844732608867 0.008619780422982651 0.9998844732608867 0.008619780422982651 1.1552673911316278E-4 -0.008619780422982651
1838529.4357522824 1.1244073792471348E-4 -0.008430435143712074 0.9998875592620754 0.008430435143712074 0.9998875592620754 0.008430435143712074 1.1244073792471348E-4 -0.008430435143712074
1878953.211253888 1.0949702877373363E-4 -0.008245079140122964 0.9998905029712265 0.008245079140122964 0.9998905029712265 0.008245079140122964 1.0949702877373363E-4 -0.008245079140122964
1920265.784940624 1.0668986317119544E-4 -0.008063625060913827 0.9998933101368288 0.008063625060913827 0.9998933101368288 0.008063625060913827 1.0668986317119544E-4 -0.008063625060913827
1962486.6988321077 1.0401373929966171E-4 -0.007885987396621495 0.9998959862607003 0.007885987396621495 0.9998959862607003 0.007885987396621495 1.0401373929966171E-4 -0.007885987396621495
2005635.9246186486 1.0146339108018703E-4 -0.007712082439639911 0.99989853660892 0.007712082439639911 0.99989853660892 0.007712082439639911 1.0146339108018703E-4 -0.007712082439639911
2049733.8731084245 9.903377768008569E-5 -0.007541828245020302 0.9999009662223203 0.007541828245020302 0.9999009662223203 0.007541828245020302 9.903377768008569E-5 -0.007541828245020302
2094801.403882371 9.672007344446208E-5 -0.007375144592034348 0.9999032799265556 0.007375144592034348 0.9999032799265556 0.007375144592034348 9.672007344446208E-5 -0.007375144592034348
2140859.835161357 9.451765823547202E-5 -0.007211952946482223 0.9999054823417647 0.007211952946482223 0.9999054823417647 0.007211952946482223 9.451765823547202E-5 -0.007211952946482223
2187930.9538903087 9.242210816433224E-5 -0.007052176423727897 0.9999075778918356 0.007052176423727897 0.9999075778918356 0.007052176423727897 9.242210816433224E-5 -0.007052176423727897
2236037.02604405 9.042918670210715E-5 -0.006895739752444263 0.9999095708132979 0.006895739752444263 0.9999095708132979 0.006895739752444263 9.042918670210715E-5 -0.006895739752444263
2285200.8071597433 8.853483615628645E-5 -0.006742569239051099 0.9999114651638438 0.006742569239051099 0.9999114651638438 0.006742569239051099 8.853483615628645E-5 -0.006742569239051099
2335445.553100901 8.673516950111447E-5 -0.0065925927328293185 0.9999132648304991 0.0065925927328293185 0.9999132648304991 0.0065925927328293185 8.673516950111447E-5 -0.0065925927328293185
2386795.031058074 8.50264625505424E-5 -0.0064457395916953895 0.9999149735374495 0.0064457395916953895 0.9999149735374495 0.0064457395916953895 8.50264625505424E-5 -0.0064457395916953895
2439273.530791401 8.340514646354155E-5 -0.006301940648620371 0.9999165948535367 0.006301940648620371 0.9999165948535367 0.006301940648620371 8.340514646354155E-5 -0.006301940648620371
2492905.876120359 8.186780057233674E-5 -0.006161128178678402 0.9999181321994277 0.006161128178678402 0.9999181321994277 0.006161128178678402 8.186780057233674E-5 -0.006161128178678402
2547717.4366661333 8.041114552489121E-5 -0.006023235866710207 0.9999195888544752 0.006023235866710207 0.9999195888544752 0.006023235866710207 8.041114552489121E-5 -0.006023235866710207
2603734.139852166 7.90320367336899E-5 -0.00588819877558767 0.9999209679632662 0.00588819877558767 0.9999209679632662 0.00588819877558767 7.90320367336899E-5 -0.00588819877558767
2660982.4831685643 7.772745812352498E-5 -0.005755953315066206 0.9999222725418764 0.005755953315066206 0.9999222725418764 0.005755953315066206 7.772745812352498E-5 -0.005755953315066206
2719489.5467061675 7.649451617157932E-5 -0.005626437211212252 0.9999235054838284 0.005626437211212252 0.9999235054838284 0.005626437211212252 7.649451617157932E-5 -0.005626437211212252
2779283.0059661944 7.533043423363E-5 -0.005499589476394007 0.9999246695657663 0.005499589476394007 0.9999246695657663 0.005499589476394007 7.533043423363E-5 -0.005499589476394007
2840391.144951544 7.423254715064286E-5 -0.0053753503798240395 0.9999257674528493 0.0053753503798240395 0.9999257674528493 0.0053753503798240395 7.423254715064286E-5 -0.0053753503798240395
2902842.8695459287 7.319829613040687E-5 -0.00525366141864328 0.9999268017038696 0.00525366141864328 0.9999268017038696 0.00525366141864328 7.319829613040687E-5 -0.00525366141864328
2966667.72118718 7.222522389915287E-5 -0.00513446528953647 0.999927774776101 0.00513446528953647 0.999927774776101 0.00513446528953647 7.222522389915287E-5 -0.00513446528953647
3031895.8908411846 7.13109701183172E-5 -0.0050177058608699065 0.9999286890298819 0.0050177058608699065 0.9999286890298819 0.0050177058608699065 7.13109701183172E-5 -0.0050177058608699065
3098558.233283071 7.045326706174346E-5 -0.004903328145343 0.9999295467329384 0.004903328145343 0.9999295467329384 0.004903328145343 7.045326706174346E-5 -0.004903328145343
3166686.281692389 6.964993554866799E-5 -0.00479127827314577 0.9999303500644512 0.00479127827314577 0.9999303500644512 0.00479127827314577 6.964993554866799E-5 -0.00479127827314577
3236312.2625692035 6.889888112780383E-5 -0.004681503465615094 0.9999311011188722 0.004681503465615094 0.9999311011188722 0.004681503465615094 6.889888112780383E-5 -0.004681503465615094
3307469.1109781396 6.81980905077307E-5 -0.004573952009383001 0.9999318019094925 0.004573952009383001 0.9999318019094925 0.004573952009383001 6.81980905077307E-5 -0.004573952009383001
3380190.486127605 6.754562822861658E-5 -0.004468573231010996 0.9999324543717714 0.004468573231010996 0.9999324543717714 0.004468573231010996 6.754562822861658E-5 -0.004468573231010996
3454510.787291549 6.69396335700451E-5 -0.004365317472104628 0.9999330603664299 0.004365317472104628 0.9999330603664299 0.004365317472104628 6.69396335700451E-5 -0.004365317472104628
3530465.1700812983 6.63783176894118E-5 -0.00426413606490312 0.9999336216823106 0.00426413606490312 0.9999336216823106 0.00426413606490312 6.63783176894118E-5 -0.00426413606490312
3608089.563075153 6.585996098498613E-5 -0.004164981308339047 0.9999341400390152 0.004164981308339047 0.9999341400390152 0.004164981308339047 6.585996098498613E-5 -0.004164981308339047
3687420.6848136308 6.538291067732953E-5 -0.004067806444563304 0.9999346170893226 0.004067806444563304 0.9999346170893226 0.004067806444563304 6.538291067732953E-5 -0.004067806444563304
3768496.0611683712 6.494557860231841E-5 -0.003972565635930763 0.9999350544213977 0.003972565635930763 0.9999350544213977 0.003972565635930763 6.494557860231841E-5 -0.003972565635930763
3851354.0430929437 6.454643920856181E-5 -0.0038792139424419355 0.9999354535607914 0.0038792139424419355 0.9999354535607914 0.0038792139424419355 6.454643920856181E-5 -0.0038792139424419355
3936033.8247639337 6.418402775153799E-5 -0.0037877072996360126 0.9999358159722485 0.0037877072996360126 0.9999358159722485 0.0037877072996360126 6.418402775153799E-5 -0.0037877072996360126
4022575.4621209023 6.385693867631328E-5 -0.0036980024969303113 0.9999361430613236 0.0036980024969303113 0.9999361430613236 0.0036980024969303113 6.385693867631328E-5 -0.0036980024969303113
4111019.891813979 6.356382418026959E-5 -0.0036100571564009892 0.99993643617582 0.0036100571564009892 0.99993643617582 0.0036100571564009892 6.356382418026959E-5 -0.0036100571564009892
4201408.950568062 6.330339294686175E-5 -0.003523829711999382 0.999936696607053 0.003523829711999382 0.999936696607053 0.003523829711999382 6.330339294686175E-5 -0.003523829711999382
4293785.394972777 6.307440904107212E-5 -0.0034392793891979204 0.9999369255909587 0.0034392793891979204 0.9999369255909587 0.0034392793891979204 6.307440904107212E-5 -0.0034392793891979204
4388192.921707552 6.287569095693237E-5 -0.0033563661850588605 0.9999371243090432 0.0033563661850588605 0.9999371243090432 0.0033563661850588605 6.287569095693237E-5 -0.0033563661850588605
4484676.188211391 6.270611080726376E-5 -0.0032750508487185068 0.9999372938891925 0.0032750508487185068 0.9999372938891925 0.0032750508487185068 6.270611080726376E-5 -0.0032750508487185068
4583280.833807113 6.256459364564647E-5 -0.003195294862278786 0.9999374354063545 0.003195294862278786 0.9999374354063545 0.003195294862278786 6.256459364564647E-5 -0.003195294862278786
4684053.501290036 6.245011691058192E-5 -0.003117060422097178 0.9999375498830892 0.003117060422097178 0.9999375498830892 0.003117060422097178 6.245011691058192E-5 -0.003117060422097178
4787041.858991356 6.236170998186684E-5 -0.0030403104204652057 0.999937638290018 0.0030403104204652057 0.999937638290018 0.0030403104204652057 6.236170998186684E-5 -0.0030403104204652057
4892294.623326608 6.229845383935206E-5 -0.0029650084276646883 0.9999377015461608 0.0029650084276646883 0.9999377015461608 0.0029650084276646883 6.229845383935206E-5 -0.0029650084276646883
4999861.581839919 6.225948081452627E-5 -0.0028911186743900614 0.9999377405191854 0.0028911186743900614 0.9999377405191854 0.0028911186743900614 6.225948081452627E-5 -0.0028911186743900614
5109793.616754934 6.224397442573585E-5 -0.002818606034524053 0.9999377560255741 0.002818606034524053 0.9999377560255741 0.002818606034524053 6.224397442573585E-5 -0.002818606034524053
5222142.729043541 6.225116928833355E-5 -0.0027474360082530803 0.9999377488307115 0.0027474360082530803 0.9999377488307115 0.0027474360082530803 6.225116928833355E-5 -0.0027474360082530803
5336962.063023812 6.228035109163164E-5 -0.002677574705507661 0.9999377196489083 0.002677574705507661 0.9999377196489083 0.002677574705507661 6.228035109163164E-5 -0.002677574705507661
5454305.931498774 6.233085663521997E-5 -0.0026089888297123123 0.9999376691433647 0.0026089888297123123 0.9999376691433647 0.0026089888297123123 6.233085663521997E-5 -0.0026089888297123123
5574229.841447907 6.240207391798362E-5 -0.0025416456618283017 0.9999375979260822 0.0025416456618283017 0.9999375979260822 0.0025416456618283017 6.240207391798362E-5 -0.0025416456618283017
5696790.520283512 6.249344227401591E-5 -0.002475513044671858 0.9999375065577261 0.002475513044671858 0.9999375065577261 0.002475513044671858 6.249344227401591E-5 -0.002475513044671858
5822045.942684401 6.260445255055818E-5 -0.0024105593674894478 0.9999373955474493 0.0024105593674894478 0.9999373955474493 0.0024105593674894478 6.260445255055818E-5 -0.0024105593674894478
5950055.3580195485 6.273464732409805E-5 -0.0023467535507709545 0.9999372653526759 0.0023467535507709545 0.9999372653526759 0.0023467535507709545 6.273464732409805E-5 -0.0023467535507709545
6080879.31837474 6.288362115181568E-5 -0.0022840650312807055 0.9999371163788481 0.0022840650312807055 0.9999371163788481 0.0022840650312807055 6.288362115181568E-5 -0.0022840650312807055
6214579.707195417 6.305102085666988E-5 -0.0022224637472855633 0.9999369489791433 0.0022224637472855633 0.9999369489791433 0.0022224637472855633 6.305102085666988E-5 -0.0022224637472855633
6351219.768559305 6.323654584555357E-5 -0.002161920123958479 0.9999367634541545 0.002161920123958479 0.9999367634541545 0.002161920123958479 6.323654584555357E-5 -0.002161920123958479
6490864.137092655 6.343994846111513E-5 -0.0021024050589351358 0.9999365600515389 0.0021024050589351358 0.9999365600515389 0.0021024050589351358 6.343994846111513E-5 -0.0021024050589351358
6633578.86854426 6.366103436902705E-5 -0.002043889908000571 0.999936338965631 0.002043889908000571 0.999936338965631 0.002043889908000571 6.366103436902705E-5 -0.002043889908000571
6779431.471031698 6.389966298368304E-5 -0.001986346470881832 0.9999361003370163 0.001986346470881832 0.9999361003370163 0.001986346470881832 6.389966298368304E-5 -0.001986346470881832
6928490.936974583 6.415574793651478E-5 -0.0019297469771219116 0.9999358442520634 0.0019297469771219116 0.9999358442520634 0.0019297469771219116 6.415574793651478E-5 -0.0019297469771219116
7080827.77572994 6.442925759233581E-5 -0.0018740640720092893 0.9999355707424077 0.0018740640720092893 0.9999355707424077 0.0018740640720092893 6.442925759233581E-5 -0.0018740640720092893
7236514.046945133 6.472021562034758E-5 -0.0018192708025364399 0.9999352797843797 0.0018192708025364399 0.9999352797843797 0.0018192708025364399 6.472021562034758E-5 -0.0018192708025364399
7395623.394644118 6.502870162767908E-5 -0.001765340603359546 0.9999349712983725 0.001765340603359546 0.9999349712983725 0.001765340603359546 6.502870162767908E-5 -0.001765340603359546
7558231.082063163 6.535485186458931E-5 -0.0017122472827303982 0.9999346451481353 0.0017122472827303982 0.9999346451481353 0.0017122472827303982 6.535485186458931E-5 -0.0017122472827303982
7724414.027252486 6.569886001174528E-5 -0.0016599650083700525 0.9999343011399884 0.0016599650083700525 0.9999343011399884 0.0016599650083700525 6.569886001174528E-5 -0.0016599650083700525
7894250.839460687 6.606097806131355E-5 -0.0016084682932520924 0.9999339390219388 0.0016084682932520924 0.9999339390219388 0.0016084682932520924 6.606097806131355E-5 -0.0016084682932520924
8067821.8563191425 6.644151730498785E-5 -0.001557731981261485 0.9999335584826949 0.001557731981261485 0.9999335584826949 0.001557731981261485 6.644151730498785E-5 -0.001557731981261485
8245209.181843984 6.684084944353696E-5 -0.0015077312326927056 0.9999331591505564 0.0015077312326927056 0.9999331591505564 0.0015077312326927056 6.684084944353696E-5 -0.0015077312326927056
8426496.72527364 6.725940783402611E-5 -0.0014584415095482014 0.999932740592166 0.0014584415095482014 0.999932740592166 0.0014584415095482014 6.725940783402611E-5 -0.0014584415095482014
8611770.240760274 6.7697688892568E-5 -0.001409838560595234 0.9999323023111073 0.001409838560595234 0.9999323023111073 0.001409838560595234 6.7697688892568E-5 -0.001409838560595234
8801117.367933933 6.815625367233787E-5 -0.0013618984061355428 0.9999318437463276 0.0013618984061355428 0.9999318437463276 0.0013618984061355428 6.815625367233787E-5 -0.0013618984061355428
8994627.673358591 6.863572963867868E-5 -0.0013145973224381376 0.9999313642703614 0.0013145973224381376 0.9999313642703614 0.0013145973224381376 6.863572963867868E-5 -0.0013145973224381376
9192392.692899661 6.913681266548392E-5 -0.0012679118257807502 0.9999308631873344 0.0012679118257807502 0.9999308631873344 0.0012679118257807502 6.913681266548392E-5 -0.0012679118257807502
9394505.975023063 6.96602692797337E-5 -0.0012218186560398357 0.9999303397307202 0.0012218186560398357 0.9999303397307202 0.0012218186560398357 6.96602692797337E-5 -0.0012218186560398357
9601063.125046303 7.020693918414534E-5 -0.0011762947597625572 0.999929793060816 0.0011762947597625572 0.999929793060816 0.0011762947597625572 7.020693918414534E-5 -0.0011762947597625572
9812161.850362506 7.077773809147039E-5 -0.0011313172726466895 0.9999292222619083 0.0011313172726466895 0.9999292222619083 0.0011313172726466895 7.077773809147039E-5 -0.0011313172726466895
